#, Frequency (Hz), Amplitude (Vpp), Gain (dB), Phase ()
1,5000.0,0.0030,32.75,165.94
2,5175.7,0.0030,33.56,164.06
3,5357.6,0.0030,34.01,162.98
4,5545.9,0.0030,34.68,163.56
5,5740.8,0.0030,35.28,160.74
6,5942.5,0.0030,35.66,160.79
7,6151.3,0.0030,36.19,159.12
8,6367.5,0.0030,36.52,157.61
9,6591.3,0.0030,37.77,157.23
10,6822.9,0.0030,37.97,156.81
11,7062.7,0.0030,38.78,158.22
12,7310.9,0.0030,39.27,158.28
13,7567.8,0.0030,39.61,156.50
14,7833.8,0.0030,40.56,154.46
15,8109.1,0.0030,40.99,156.88
16,8394.0,0.0030,41.69,153.73
17,8689.0,0.0030,42.11,152.65
18,8994.4,0.0030,42.79,151.47
19,9310.4,0.0030,42.92,150.80
20,9637.6,0.0030,43.91,149.08
21,9976.3,0.0030,44.48,149.20
22,10326.9,0.0030,45.05,148.48
23,10689.8,0.0030,45.46,147.74
24,11065.5,0.0030,46.11,147.01
25,11454.3,0.0030,46.61,144.38
26,11856.9,0.0030,47.29,145.48
27,12273.5,0.0030,47.84,143.93
28,12704.9,0.0030,48.45,142.68
29,13151.3,0.0030,48.79,139.87
30,13613.5,0.0030,49.22,137.70
31,14091.9,0.0030,49.95,138.69
32,14587.1,0.0030,50.72,136.47
33,15099.8,0.0030,51.12,134.87
34,15630.4,0.0030,51.60,134.61
35,16179.7,0.0030,52.38,134.20
36,16748.3,0.0030,52.76,131.48
37,17336.8,0.0030,53.11,130.12
38,17946.1,0.0030,54.04,127.98
39,18576.8,0.0030,54.32,127.30
40,19229.6,0.0030,54.85,124.13
41,19905.4,0.0030,55.35,123.54
42,20604.9,0.0030,56.15,121.61
43,21329.0,0.0030,56.42,118.14
44,22078.5,0.0030,56.94,117.31
45,22854.4,0.0030,57.38,115.93
46,23657.6,0.0030,57.86,113.63
47,24488.9,0.0030,58.48,111.86
48,25349.5,0.0030,58.84,109.06
49,26240.4,0.0030,59.44,107.71
50,27162.5,0.0030,59.85,104.90
51,28117.1,0.0030,60.12,102.20
52,29105.2,0.0030,60.39,100.70
53,30128.0,0.0030,60.80,97.11
54,31186.7,0.0030,61.36,95.50
55,32282.7,0.0030,61.71,92.29
56,33417.2,0.0030,61.92,90.08
57,34591.5,0.0030,62.49,89.10
58,35807.2,0.0030,62.68,85.77
59,37065.5,0.0030,63.30,82.94
60,38368.1,0.0030,63.53,81.27
61,39716.4,0.0030,64.11,78.05
62,41112.1,0.0030,64.22,75.29
63,42556.9,0.0030,64.44,70.68
64,44052.4,0.0030,64.74,68.75
65,45600.5,0.0030,64.94,66.80
66,47203.0,0.0030,65.31,64.54
67,48861.9,0.0030,65.41,62.04
68,50579.0,0.0030,65.76,58.95
69,52356.4,0.0030,66.06,57.46
70,54196.3,0.0030,66.20,54.09
71,56100.9,0.0030,66.37,50.51
72,58072.4,0.0030,66.31,48.18
73,60113.2,0.0030,66.94,48.29
74,62225.7,0.0030,66.92,43.08
75,64412.5,0.0030,67.35,38.40
76,66676.1,0.0030,66.31,38.82
77,69019.2,0.0030,67.60,36.59
78,71444.7,0.0030,66.89,34.37
79,73955.4,0.0030,68.68,23.43
80,76554.4,0.0030,68.60,32.28
81,79244.7,0.0030,67.67,31.99
82,82029.5,0.0030,66.49,20.63
83,84912.2,0.0030,68.78,10.87
84,87896.2,0.0030,69.30,8.33
85,90985.0,0.0030,69.44,11.63
86,94182.5,0.0030,69.58,11.39
87,97492.2,0.0030,69.21,0.32
88,100918.3,0.0030,68.20,15.21
89,104464.8,0.0030,69.01,-4.62
90,108135.9,0.0030,68.44,6.50
91,111936.1,0.0030,69.81,-8.14
92,115869.7,0.0030,68.99,-12.35
93,119941.6,0.0030,68.72,-5.99
94,124156.7,0.0030,68.84,-8.24
95,128519.8,0.0030,68.08,-11.90
96,133036.3,0.0030,68.65,-20.86
97,137711.4,0.0030,69.17,-16.91
98,142550.9,0.0030,68.88,-24.87
99,147560.5,0.0030,69.35,-26.84
100,152746.1,0.0030,69.06,-26.51
101,158113.9,0.0030,69.61,-33.77
102,163670.3,0.0030,69.23,-36.63
103,169422.1,0.0030,68.97,-43.01
104,175375.9,0.0030,67.45,-44.45
105,181539.0,0.0030,68.95,-50.63
106,187918.7,0.0030,69.00,-49.10
107,194522.6,0.0030,67.35,-50.19
108,201358.5,0.0030,67.98,-66.03
109,208434.7,0.0030,68.29,-58.75
110,215759.5,0.0030,66.63,-71.16
111,223341.8,0.0030,67.07,-76.65
112,231190.5,0.0030,66.47,-70.34
113,239315.0,0.0030,67.49,-85.97
114,247725.1,0.0030,66.32,-89.12
115,256430.7,0.0030,65.89,-80.98
116,265442.2,0.0030,66.38,-88.39
117,274770.4,0.0030,65.69,-96.21
118,284426.5,0.0030,64.41,-103.61
119,294421.8,0.0030,64.61,-99.87
120,304768.4,0.0030,63.74,-104.25
121,315478.7,0.0030,62.51,-108.40
122,326565.3,0.0030,62.82,-117.40
123,338041.5,0.0030,61.83,-117.55
124,349921.0,0.0030,61.52,-120.57
125,362218.0,0.0030,60.89,-122.59
126,374947.1,0.0030,60.00,-126.62
127,388123.6,0.0030,60.60,-127.17
128,401763.1,0.0030,59.74,-136.20
129,415881.9,0.0030,58.67,-140.92
130,430496.9,0.0030,57.47,-133.15
131,445625.5,0.0030,54.60,-138.91
132,461285.7,0.0030,57.06,-147.04
133,477496.3,0.0030,56.33,-146.72
134,494276.5,0.0030,56.07,-145.59
135,511646.5,0.0030,55.48,-149.79
136,529626.9,0.0030,54.89,-162.34
137,548239.1,0.0030,53.44,-151.17
138,567505.4,0.0030,51.97,-151.66
139,587448.8,0.0030,52.92,-161.88
140,608093.0,0.0030,51.65,-147.60
141,629462.7,0.0030,51.86,-162.37
142,651583.4,0.0030,51.08,-163.00
143,674481.4,0.0030,49.07,188.37
144,698184.2,0.0030,48.17,-154.99
145,722719.9,0.0030,49.94,-158.61
146,748117.8,0.0030,47.64,179.94
147,774408.3,0.0030,47.09,-166.43
148,801622.7,0.0030,45.83,-167.60
149,829793.5,0.0030,47.26,174.25
150,858954.2,0.0030,45.33,181.82
151,889139.7,0.0030,42.33,184.53
152,920386.0,0.0030,42.46,187.17
153,952730.4,0.0030,42.53,170.89
154,986211.4,0.0030,42.16,174.03
155,1020869.0,0.0030,40.92,172.46
156,1056744.5,0.0030,39.98,186.96
157,1093880.8,0.0030,40.55,175.12
158,1132322.2,0.0030,39.26,163.26
159,1172114.4,0.0030,37.69,189.53
160,1213305.0,0.0030,37.49,180.08
161,1255943.2,0.0030,37.73,169.48
162,1300079.8,0.0030,37.49,165.43
163,1345767.4,0.0030,36.64,-168.13
164,1393060.6,0.0030,33.16,166.87
165,1442015.8,0.0030,34.12,153.16
166,1492691.3,0.0030,33.24,161.09
167,1545147.7,0.0030,33.19,178.45
168,1599447.6,0.0030,31.51,162.11
169,1655655.6,0.0030,29.60,176.80
170,1713838.9,0.0030,30.13,163.63
171,1774066.9,0.0030,28.45,160.52
172,1836411.5,0.0030,28.46,154.45
173,1900947.0,0.0030,27.53,157.95
174,1967750.4,0.0030,24.84,172.99
175,2036901.4,0.0030,26.99,159.54
176,2108482.5,0.0030,27.23,156.75
177,2182579.2,0.0030,25.84,161.56
178,2259279.7,0.0030,24.94,144.07
179,2338675.7,0.0030,19.96,163.07
180,2420861.8,0.0030,22.16,162.97
181,2505936.2,0.0030,22.31,161.17
182,2594000.2,0.0030,21.74,171.95
183,2685159.0,0.0030,22.38,169.00
184,2779521.3,0.0030,21.59,166.63
185,2877199.7,0.0030,19.52,155.53
186,2978310.7,0.0030,20.98,-129.97
187,3082975.0,0.0030,21.01,161.54
188,3191317.4,0.0030,19.33,-189.48
189,3303467.2,0.0030,21.30,-89.14
190,3419558.2,0.0030,16.68,142.97
191,3539728.9,0.0030,10.14,-149.06
192,3664122.7,0.0030,-32.32,-160.83
193,3792887.9,0.0030,18.56,-114.55
194,3926178.2,0.0030,19.68,-109.18
195,4064152.6,0.0030,20.12,-112.15
196,4206975.7,0.0030,17.32,123.45
197,4354817.9,0.0030,5.10,72.45
198,4507855.7,0.0030,13.94,160.63
199,4666271.5,0.0030,10.55,-150.32
200,4830254.4,0.0030,9.40,-180.21
201,5000000.0,0.0030,13.60,95.08
