Freq.	V(v1)	V(v2)	V(v3)
5.00000000000000e+03	1.37652049619035e+02	-4.21753200047572e+00	-9.61489841109267e+01	2.96992311158774e+01	-6.56837788700586e+03	2.25485411260973e+03
5.05789727129949e+03	1.37650800547638e+02	-4.26651991387084e+00	-9.82545075705904e+01	3.07213379387745e+01	-6.71087278378457e+03	2.33239861850681e+03
5.11646496140377e+03	1.37649521302027e+02	-4.31608027479452e+00	-1.00402904081980e+02	3.17781049391306e+01	-6.85620341769876e+03	2.41256929782245e+03
5.17571083339672e+03	1.37648211129244e+02	-4.36621988729287e+00	-1.02594891856401e+02	3.28706772454853e+01	-7.00441387191569e+03	2.49545271034606e+03
5.23564274025450e+03	1.37646869256670e+02	-4.41694564011270e+00	-1.04831193320525e+02	3.40002360378771e+01	-7.15554827823755e+03	2.58113812914693e+03
5.29626862588645e+03	1.37645494891093e+02	-4.46826450768554e+00	-1.07112534685214e+02	3.51679995818204e+01	-7.30965077473205e+03	2.66971761685795e+03
5.35759652618803e+03	1.37644087218549e+02	-4.52018355136190e+00	-1.09439645531781e+02	3.63752243089470e+01	-7.46676546245078e+03	2.76128610467633e+03
5.41963457010602e+03	1.37642645403373e+02	-4.57270992041979e+00	-1.11813258226092e+02	3.76232058577767e+01	-7.62693636010966e+03	2.85594147237943e+03
5.48239098071593e+03	1.37641168587643e+02	-4.62585085383957e+00	-1.14234107410270e+02	3.89132801900414e+01	-7.79020735221819e+03	2.95378462947171e+03
5.54587407631201e+03	1.37639655890714e+02	-4.67961368073288e+00	-1.16702929362624e+02	4.02468246822924e+01	-7.95662213414444e+03	3.05491959693760e+03
5.61009227150982e+03	1.37638106408323e+02	-4.73400582198076e+00	-1.19220461602129e+02	4.16252593846132e+01	-8.12622417009230e+03	3.15945359994687e+03
5.67505407836158e+03	1.37636519212055e+02	-4.78903479209394e+00	-1.21787441962749e+02	4.30500480579110e+01	-8.29905661714114e+03	3.26749714552140e+03
5.74076810748442e+03	1.37634893348603e+02	-4.84470819907052e+00	-1.24404607959950e+02	4.45226994003818e+01	-8.47516226825154e+03	3.37916411361910e+03
5.80724306920172e+03	1.37633227839144e+02	-4.90103374716183e+00	-1.27072696151046e+02	4.60447683171953e+01	-8.65458348889575e+03	3.49457184937361e+03
5.87448777469765e+03	1.37631521678382e+02	-4.95801923731275e+00	-1.29792441295079e+02	4.76178571362296e+01	-8.83736214563233e+03	3.61384125369560e+03
5.94251113718510e+03	1.37629773833744e+02	-5.01567256925140e+00	-1.32564575471773e+02	4.92436168514260e+01	-9.02353953179949e+03	3.73709687624748e+03
6.01132217308707e+03	1.37627983244992e+02	-5.07400174202347e+00	-1.35389827132886e+02	5.09237483724396e+01	-9.21315628296816e+03	3.86446700654898e+03
6.08093000323185e+03	1.37626148822993e+02	-5.13301485594676e+00	-1.38268920440885e+02	5.26600039872364e+01	-9.40625231303058e+03	3.99608378142928e+03
6.15134385406191e+03	1.37624269449013e+02	-5.19272011373249e+00	-1.41202573905337e+02	5.44541884903050e+01	-9.60286670320047e+03	4.13208326852082e+03
6.22257305885693e+03	1.37622343973669e+02	-5.25312582237759e+00	-1.44191499490072e+02	5.63081606233551e+01	-9.80303762038462e+03	4.27260557162098e+03
6.29462705897084e+03	1.37620371216454e+02	-5.31424039455828e+00	-1.47236401623945e+02	5.82238345140111e+01	-1.00068022280908e+04	4.41779493583819e+03
6.36751540508332e+03	1.37618349964334e+02	-5.37607234891397e+00	-1.50337975764181e+02	6.02031809228900e+01	-1.02141965719178e+04	4.56779984103533e+03
6.44124775846568e+03	1.37616278970935e+02	-5.43863031368120e+00	-1.53496907430326e+02	6.22482288116200e+01	-1.04252554859884e+04	4.72277311435871e+03
6.51583389226151e+03	1.37614156955798e+02	-5.50192302631349e+00	-1.56713870563122e+02	6.43610665784951e+01	-1.06400124577322e+04	4.88287201999814e+03
6.59128369278205e+03	1.37611982602711e+02	-5.56595933644678e+00	-1.59989526522494e+02	6.65438437311142e+01	-1.08584995410137e+04	5.04825838418821e+03
6.66760716081663e+03	1.37609754559522e+02	-5.63074820644360e+00	-1.63324522385741e+02	6.87987721939807e+01	-1.10807472048757e+04	5.21909868526682e+03
6.74481441295828e+03	1.37607471436344e+02	-5.69629871355960e+00	-1.66719489370321e+02	7.11281277650644e+01	-1.13067842112552e+04	5.39556416498529e+03
6.82291568294463e+03	1.37605131804598e+02	-5.76262005145863e+00	-1.70175041428909e+02	7.35342517261887e+01	-1.15366374836592e+04	5.57783094130130e+03
6.90192132301444e+03	1.37602734195981e+02	-5.82972153170698e+00	-1.73691773387980e+02	7.60195522422652e+01	-1.17703319523035e+04	5.76608010944219e+03
6.98184180527970e+03	1.37600277101043e+02	-5.89761258613556e+00	-1.77270259323760e+02	7.85865059829982e+01	-1.20078904215870e+04	5.96049786299096e+03
7.06268772311379e+03	1.37597758968142e+02	-5.96630276754305e+00	-1.80911050600776e+02	8.12376595713225e+01	-1.22493333946393e+04	6.16127559223915e+03
7.14446979255553e+03	1.37595178201939e+02	-6.03580175207927e+00	-1.84614673772729e+02	8.39756310351811e+01	-1.24946789035502e+04	6.36860999054132e+03
7.22719885372965e+03	1.37592533162378e+02	-6.10611934072901e+00	-1.88381628849574e+02	8.68031115451961e+01	-1.27439423608371e+04	6.58270318071225e+03
7.31088587228361e+03	1.37589822162771e+02	-6.17726546174677e+00	-1.92212386863562e+02	8.97228667740016e+01	-1.29971363530605e+04	6.80376280802127e+03
7.39554194084105e+03	1.37587043468998e+02	-6.24925017127812e+00	-1.96107387823888e+02	9.27377385819540e+01	-1.32542704715267e+04	7.03200216321118e+03
7.48117828047218e+03	1.37584195297364e+02	-6.32208365660206e+00	-2.00067038146652e+02	9.58506464043965e+01	-1.35153510960137e+04	7.26764027831072e+03
7.56780624218106e+03	1.37581275813759e+02	-6.39577623679131e+00	-2.04091708299810e+02	9.90645888649744e+01	-1.37803811918794e+04	7.51090203783497e+03
7.65543730841017e+03	1.37578283131597e+02	-6.47033836511531e+00	-2.08181730469731e+02	1.02382645493408e+02	-1.40493601235015e+04	7.76201830715971e+03
7.74408309456243e+03	1.37575215310200e+02	-6.54578063152251e+00	-2.12337395223713e+02	1.05807977781007e+02	-1.43222833714134e+04	8.02122599602334e+03
7.83375535054077e+03	1.37572070353392e+02	-6.62211376352396e+00	-2.16558949356229e+02	1.09343831158092e+02	-1.45991423455397e+04	8.28876819935523e+03
7.92446596230559e+03	1.37568846207573e+02	-6.69934862888752e+00	-2.20846592480276e+02	1.12993536149480e+02	-1.48799241171448e+04	8.56489428050375e+03
8.01622695345023e+03	1.37565540759865e+02	-6.77749623737536e+00	-2.25200474362951e+02	1.16760510151239e+02	-1.51646111809843e+04	8.84985998817721e+03
8.10905048679467e+03	1.37562151836403e+02	-6.85656774299708e+00	-2.29620691383832e+02	1.20648258605417e+02	-1.54531811689157e+04	9.14392753645247e+03
8.20294886599772e+03	1.37558677200205e+02	-6.93657444624823e+00	-2.34107283198410e+02	1.24660376425001e+02	-1.57456065706892e+04	9.44736569875741e+03
8.29793453718783e+03	1.37555114549437e+02	-7.01752779523602e+00	-2.38660229493924e+02	1.28800549539872e+02	-1.60418544644094e+04	9.76044991392468e+03
8.39402009061283e+03	1.37551461515068e+02	-7.09943938931108e+00	-2.43279446293868e+02	1.33072556204019e+02	-1.63418862105888e+04	1.00834623711603e+04
8.49121826230875e+03	1.37547715658914e+02	-7.18232097977407e+00	-2.47964782028042e+02	1.37480268144694e+02	-1.66456571245956e+04	1.04166920798344e+04
8.58954193578797e+03	1.37543874471615e+02	-7.26618447270667e+00	-2.52716013698046e+02	1.42027651881348e+02	-1.69531161673413e+04	1.07604349603245e+04
8.68900414374690e+03	1.37539935369788e+02	-7.35104193176880e+00	-2.57532842984390e+02	1.46718770094557e+02	-1.72642056068863e+04	1.11149939216686e+04
8.78961806979349e+03	1.37535895694313e+02	-7.43690557898245e+00	-2.62414891656954e+02	1.51557782426784e+02	-1.75788606546475e+04	1.14806789127522e+04
8.89139705019464e+03	1.37531752707435e+02	-7.52378779857126e+00	-2.67361697296997e+02	1.56548946669975e+02	-1.78970091113574e+04	1.18578069947132e+04
8.99435457564397e+03	1.37527503590621e+02	-7.61170113825585e+00	-2.72372709051937e+02	1.61696620011509e+02	-1.82185710001913e+04	1.22467024076112e+04
9.09850429304995e+03	1.37523145441651e+02	-7.70065831140991e+00	-2.77447282358399e+02	1.67005259503519e+02	-1.85434581541464e+04	1.26476965959524e+04
9.20386000734481e+03	1.37518675272004e+02	-7.79067220065198e+00	-2.82584674380381e+02	1.72479423146874e+02	-1.88715738275953e+04	1.30611282651177e+04
9.31043568331437e+03	1.37514090004314e+02	-7.88175585846696e+00	-2.87784038720196e+02	1.78123770436564e+02	-1.92028122580085e+04	1.34873433951399e+04
9.41824544744904e+03	1.37509386469107e+02	-7.97392251144379e+00	-2.93044420538794e+02	1.83943063366271e+02	-1.95370582713170e+04	1.39266953023746e+04
9.52730358981627e+03	1.37504561402124e+02	-8.06718556101867e+00	-2.98364750261737e+02	1.89942166085994e+02	-1.98741867660545e+04	1.43795445817263e+04
9.63762456595472e+03	1.37499611441226e+02	-8.16155858669517e+00	-3.03743838956591e+02	1.96126046280343e+02	-2.02140623287986e+04	1.48462591912320e+04
9.74922299879026e+03	1.37494533123020e+02	-8.25705534917199e+00	-3.09180371759865e+02	2.02499774666988e+02	-2.05565386880403e+04	1.53272143743905e+04
9.86211368057431e+03	1.37489322879826e+02	-8.35368979114581e+00	-3.14672902053557e+02	2.09068525283458e+02	-2.09014582470299e+04	1.58227926625929e+04
9.97631157484444e+03	1.37483977035972e+02	-8.45147604173837e+00	-3.20219845220467e+02	2.15837575417499e+02	-2.12486515686748e+04	1.63333838369424e+04
1.00918318184078e+04	1.37478491804866e+02	-8.55042841690174e+00	-3.25819472417433e+02	2.22812305527050e+02	-2.15979368623129e+04	1.68593848901362e+04
1.02086897233477e+04	1.37472863284680e+02	-8.65056142481056e+00	-3.31469903353272e+02	2.29998198233851e+02	-2.19491193916033e+04	1.74011999090324e+04
1.03269007790527e+04	1.37467087454992e+02	-8.75188976501272e+00	-3.37169100422579e+02	2.37400838709467e+02	-2.23019909950803e+04	1.79592400792967e+04
1.04464806542702e+04	1.37461160172901e+02	-8.85442833400390e+00	-3.42914860690602e+02	2.45025912784825e+02	-2.26563294268560e+04	1.85339234916542e+04
1.05674451991833e+04	1.37455077169073e+02	-8.95819222549930e+00	-3.48704809235217e+02	2.52879206559623e+02	-2.30118978166887e+04	1.91256750821452e+04
1.06898104475112e+04	1.37448834043238e+02	-9.06319673508676e+00	-3.54536391463152e+02	2.60966604852326e+02	-2.33684440323113e+04	1.97349264626947e+04
1.08135926186352e+04	1.37442426260608e+02	-9.16945736084810e+00	-3.60406865585162e+02	2.69294089752804e+02	-2.37257000702695e+04	2.03621157748132e+04
1.09388081197478e+04	1.37435849146805e+02	-9.27698980742249e+00	-3.66313294780483e+02	2.77867738944575e+02	-2.40833814135400e+04	2.10076875135927e+04
1.10654735480282e+04	1.37429097883488e+02	-9.38580998897581e+00	-3.72252538703458e+02	2.86693723014147e+02	-2.44411863374923e+04	2.16720922710345e+04
1.11936056928418e+04	1.37422167504049e+02	-9.49593402974132e+00	-3.78221246168937e+02	2.95778304278021e+02	-2.47987953049239e+04	2.23557865996683e+04
1.13232215379654e+04	1.37415052888238e+02	-9.60737826814096e+00	-3.84215845768097e+02	3.05127832899926e+02	-2.51558702052367e+04	2.30592326591118e+04
1.14543382638389e+04	1.37407748757405e+02	-9.72015925973265e+00	-3.90232537555606e+02	3.14748744373196e+02	-2.55120536776918e+04	2.37828979736246e+04
1.15869732498425e+04	1.37400249669146e+02	-9.83429377909047e+00	-3.96267284412622e+02	3.24647556302629e+02	-2.58669683933325e+04	2.45272551209745e+04
1.17211440765997e+04	1.37392550012363e+02	-9.94979882263794e+00	-4.02315802835215e+02	3.34830864556088e+02	-2.62202163087803e+04	2.52927813787812e+04
1.18568685283083e+04	1.37384644001208e+02	-1.00666916113910e+01	-4.08373553586373e+02	3.45305338834050e+02	-2.65713779018507e+04	2.60799583217272e+04
1.19941645950975e+04	1.37376525669710e+02	-1.01849895929805e+01	-4.14435732706344e+02	3.56077718791197e+02	-2.69200114428769e+04	2.68892714681610e+04
1.21330504754121e+04	1.37368188865885e+02	-1.03047104451525e+01	-4.20497261557713e+02	3.67154808403887e+02	-2.72656521667640e+04	2.77212097596444e+04
1.22735445784252e+04	1.37359627245567e+02	-1.04258720776757e+01	-4.26552777473512e+02	3.78543471201258e+02	-2.76078115239389e+04	2.85762651424532e+04
1.24156655264779e+04	1.37350834266087e+02	-1.05484926353565e+01	-4.32596623533220e+02	3.90250623719143e+02	-2.79459763312414e+04	2.94549319709579e+04
1.25594321575480e+04	1.37341803180172e+02	-1.06725904993445e+01	-4.38622839048617e+02	4.02283229962948e+02	-2.82796080021674e+04	3.03577065175950e+04
1.27048635277466e+04	1.37332527028800e+02	-1.07981842912586e+01	-4.44625149267189e+02	4.14648294272825e+02	-2.86081416991575e+04	3.12850863340438e+04
1.28519789138444e+04	1.37322998634493e+02	-1.09252928752986e+01	-4.50596954731897e+02	4.27352853187025e+02	-2.89309854706802e+04	3.22375695410823e+04
1.30007978158264e+04	1.37313210594703e+02	-1.10539353584726e+01	-4.56531321589460e+02	4.40403968575604e+02	-2.92475194518150e+04	3.32156542105635e+04
1.31513399594770e+04	1.37303155273614e+02	-1.11841310966923e+01	-4.62420970829811e+02	4.53808718524118e+02	-2.95570949955607e+04	3.42198375816885e+04
1.33036252989941e+04	1.37292824795191e+02	-1.13158996941333e+01	-4.68258268287998e+02	4.67574189011739e+02	-2.98590338301994e+04	3.52506152982468e+04
1.34576740196347e+04	1.37282211035691e+02	-1.14492610052237e+01	-4.74035213130482e+02	4.81707462306638e+02	-3.01526271448981e+04	3.63084804283781e+04
1.36135065403896e+04	1.37271305614885e+02	-1.15842351400076e+01	-4.79743428595271e+02	4.96215609003957e+02	-3.04371348154334e+04	3.73939227510336e+04
1.37711435166909e+04	1.37260099888323e+02	-1.17208424626926e+01	-4.85374150573370e+02	5.11105675252709e+02	-3.07117844730459e+04	3.85074276451817e+04
1.39306058431489e+04	1.37248584939020e+02	-1.18591035954916e+01	-4.90918217464078e+02	5.26384671668481e+02	-3.09757706708240e+04	3.96494751248512e+04
1.40919146563224e+04	1.37236751568147e+02	-1.19990394200881e+01	-4.96366059676695e+02	5.42059560746695e+02	-3.12282540293565e+04	4.08205387562410e+04
1.42550913375196e+04	1.37224590286719e+02	-1.21406710791282e+01	-5.01707689248338e+02	5.58137243766262e+02	-3.14683603740878e+04	4.20210845018649e+04
1.44201575156331e+04	1.37212091305435e+02	-1.22840199793136e+01	-5.06932689659599e+02	5.74624546925125e+02	-3.16951799071283e+04	4.32515695358373e+04
1.45871350700059e+04	1.37199244526428e+02	-1.24291077909014e+01	-5.12030205407578e+02	5.91528205936672e+02	-3.19077663636770e+04	4.45124409265413e+04
1.47560461333320e+04	1.37186039532126e+02	-1.25759564502495e+01	-5.16988932648065e+02	6.08854851694352e+02	-3.21051362065006e+04	4.58041343494519e+04
1.49269130945899e+04	1.37172465576162e+02	-1.27245881623933e+01	-5.21797108873101e+02	6.26610992834646e+02	-3.22862678155336e+04	4.71270726330277e+04
1.50997586020102e+04	1.37158511572406e+02	-1.28750253993045e+01	-5.26442503709706e+02	6.44802998761538e+02	-3.24501007056808e+04	4.84816642623799e+04
1.52746055660777e+04	1.37144166085030e+02	-1.30272909033036e+01	-5.30912409897080e+02	6.63437082322573e+02	-3.25955347936122e+04	4.98683019014215e+04
1.54514771625681e+04	1.37129417316406e+02	-1.31814076879872e+01	-5.35193634046108e+02	6.82519279962200e+02	-3.27214296305982e+04	5.12873606683075e+04
1.56303968356199e+04	1.37114253097328e+02	-1.33373990370723e+01	-5.39272488448038e+02	7.02055432187547e+02	-3.28266037244245e+04	5.27391964589741e+04
1.58113883008420e+04	1.37098660874056e+02	-1.34952885068723e+01	-5.43134782899589e+02	7.22051162757491e+02	-3.29098338667512e+04	5.42241441568939e+04
1.59944755484571e+04	1.37082627697718e+02	-1.36550999249373e+01	-5.46765817254945e+02	7.42511857194295e+02	-3.29698545195045e+04	5.57425157936563e+04
1.61796828464815e+04	1.37066140211138e+02	-1.38168573924146e+01	-5.50150374370966e+02	7.63442640196036e+02	-3.30053572060126e+04	5.72945985611098e+04
1.63670347439420e+04	1.37049184637051e+02	-1.39805852809412e+01	-5.53272713584325e+02	7.84848351692201e+02	-3.30149899901942e+04	5.88806527896029e+04
1.65565560741297e+04	1.37031746764860e+02	-1.41463082355452e+01	-5.56116564920727e+02	8.06733522440459e+02	-3.29973569826090e+04	6.05009098308039e+04
1.67482719578915e+04	1.37013811938073e+02	-1.43140511704529e+01	-5.58665124173581e+02	8.29102348927335e+02	-3.29510179228870e+04	6.21555698890743e+04
1.69422078069603e+04	1.36995365039917e+02	-1.44838392730755e+01	-5.60901048372652e+02	8.51958666484640e+02	-3.28744877937401e+04	6.38447996962800e+04
1.71383893273226e+04	1.36976390480898e+02	-1.46556979971351e+01	-5.62806452368924e+02	8.75305921604549e+02	-3.27662365319345e+04	6.55687301265536e+04
1.73368425226267e+04	1.36956872183478e+02	-1.48296530659866e+01	-5.64362906331446e+02	8.99147144704507e+02	-3.26246888153056e+04	6.73274538666918e+04
1.75375936976285e+04	1.36936793568357e+02	-1.50057304679771e+01	-5.65551434028077e+02	9.23484919484107e+02	-3.24482238876336e+04	6.91210227190384e+04
1.77406694616789e+04	1.36916137539487e+02	-1.51839564565048e+01	-5.66352512263022e+02	9.48321353331956e+02	-3.22351755103794e+04	7.09494450719711e+04
1.79460967322504e+04	1.36894886469253e+02	-1.53643575444606e+01	-5.66746071384735e+02	9.73658045043562e+02	-3.19838319846323e+04	7.28126830916875e+04
1.81539027385052e+04	1.36873022182301e+02	-1.55469605064449e+01	-5.66711497149861e+02	9.99496055078492e+02	-3.16924362822230e+04	7.47106501424581e+04
1.83641150249044e+04	1.36850525940645e+02	-1.57317923702222e+01	-5.66227633626761e+02	1.02583586981338e+03	-3.13591862637656e+04	7.66432076666151e+04
1.85767614548588e+04	1.36827378427208e+02	-1.59188804171155e+01	-5.65272787448331e+02	1.05267736833769e+03	-3.09822350209086e+04	7.86101623230906e+04
1.87918702144224e+04	1.36803559729502e+02	-1.61082521745520e+01	-5.63824733857848e+02	1.08001978929667e+03	-3.05596913337105e+04	8.06112630561280e+04
1.90094698160282e+04	1.36779049322295e+02	-1.62999354163825e+01	-5.61860723734803e+02	1.10786169395930e+03	-3.00896202373727e+04	8.26461978912971e+04
1.92295891022678e+04	1.36753826051460e+02	-1.64939581532921e+01	-5.59357492550314e+02	1.13620092865075e+03	-2.95700437432976e+04	8.47145906490607e+04
1.94522572497142e+04	1.36727868115909e+02	-1.66903486297824e+01	-5.56291271059467e+02	1.16503458991782e+03	-2.89989416783877e+04	8.68159978518670e+04
1.96775037727890e+04	1.36701153049989e+02	-1.68891353185755e+01	-5.52637797401494e+02	1.19435898592950e+03	-2.83742526762140e+04	8.89499053624915e+04
1.99053585276750e+04	1.36673657705629e+02	-1.70903469129447e+01	-5.48372331505977e+02	1.22416959706538e+03	-2.76938753349571e+04	9.11157248972040e+04
2.01358517162731e+04	1.36645358233809e+02	-1.72940123205237e+01	-5.43469671033178e+02	1.25446103892104e+03	-2.69556695043851e+04	9.33127907358950e+04
2.03690138902058e+04	1.36616230065850e+02	-1.75001606558828e+01	-5.37904169561692e+02	1.28522702072271e+03	-2.61574577698238e+04	9.55403560270378e+04
2.06048759548667e+04	1.36586247894236e+02	-1.77088212332512e+01	-5.31649756774362e+02	1.31646030753574e+03	-2.52970270884657e+04	9.77975894261937e+04
2.08434691735169e+04	1.36555385654016e+02	-1.79200235557142e+01	-5.24679961049109e+02	1.34815267814890e+03	-2.43721306402634e+04	1.00083571330187e+05
2.10848251714293e+04	1.36523616502933e+02	-1.81337973066439e+01	-5.16967933977296e+02	1.38029488614550e+03	-2.33804898279833e+04	1.02397290362716e+05
2.13289759400798e+04	1.36490912800717e+02	-1.83501723431767e+01	-5.08486477341456e+02	1.41287661823752e+03	-2.23197964919474e+04	1.04737639596491e+05
2.15759538413885e+04	1.36457246090717e+02	-1.85691786795153e+01	-4.99208072833500e+02	1.44588645449599e+03	-2.11877153474053e+04	1.07103412965819e+05
2.18257916120085e+04	1.36422587078152e+02	-1.87908464798461e+01	-4.89104913761472e+02	1.47931182740756e+03	-1.99818865991939e+04	1.09493301518510e+05
2.20785223676658e+04	1.36386905610217e+02	-1.90152060457375e+01	-4.78148939721135e+02	1.51313898130023e+03	-1.86999287992743e+04	1.11905889669162e+05
2.23341796075484e+04	1.36350170655270e+02	-1.92422878014358e+01	-4.66311873876297e+02	1.54735293168023e+03	-1.73394419379202e+04	1.14339651480378e+05
2.25927972187463e+04	1.36312350281518e+02	-1.94721222825210e+01	-4.53565262608109e+02	1.58193742732793e+03	-1.58980107103594e+04	1.16792947019841e+05
2.28544094807440e+04	1.36273411635898e+02	-1.97047401196366e+01	-4.39880518205455e+02	1.61687491057964e+03	-1.43732080726276e+04	1.19264018711528e+05
