time	V(v0)	V(v3)
0.000000000000000e+00	0.000000e+00	-1.362162e-05
4.750735552154281e-08	1.825305e-08	-1.332512e-05
9.501471104308562e-08	3.623671e-08	-1.326830e-05
1.425220665646284e-07	5.395096e-08	-1.345116e-05
1.900294220861712e-07	7.139582e-08	-1.387370e-05
2.375367776077141e-07	8.857128e-08	-1.453592e-05
2.850441331292568e-07	1.054773e-07	-1.543781e-05
3.325514886507995e-07	1.221140e-07	-1.657938e-05
3.845877108169562e-07	1.395879e-07	-1.923337e-05
4.557095248527387e-07	1.623352e-07	-2.496695e-05
5.464115605522390e-07	1.891480e-07	-3.656849e-05
6.593265996147390e-07	2.185540e-07	-5.702716e-05
7.263429934981994e-07	2.338021e-07	-7.686079e-05
7.933593873816599e-07	2.470285e-07	-9.897663e-05
8.603757812651202e-07	2.582331e-07	-1.233747e-04
9.273921751485807e-07	2.674159e-07	-1.500549e-04
9.944085690320409e-07	2.745770e-07	-1.790174e-04
1.061424962915501e-06	2.797163e-07	-2.102621e-04
1.128441356798962e-06	2.828339e-07	-2.437890e-04
1.226097606798962e-06	2.834344e-07	-2.850581e-04
1.323753856798962e-06	2.796893e-07	-3.167623e-04
1.421410106798962e-06	2.717994e-07	-3.322174e-04
1.519066356798962e-06	2.600479e-07	-3.240972e-04
1.616722606798962e-06	2.447932e-07	-2.846420e-04
1.714378856798962e-06	2.264599e-07	-2.059307e-04
1.812035106798962e-06	2.055284e-07	-8.016517e-05
1.909691356798962e-06	1.825234e-07	1.000460e-04
2.007347606798962e-06	1.580013e-07	3.414119e-04
2.105003856798961e-06	1.325370e-07	6.497008e-04
2.202660106798961e-06	1.067106e-07	1.029507e-03
2.300316356798961e-06	8.109365e-08	1.484046e-03
2.397972606798961e-06	5.623600e-08	2.014994e-03
2.495628856798961e-06	3.265332e-08	2.622354e-03
2.593285106798961e-06	1.081530e-08	3.304380e-03
2.690941356798960e-06	-8.864821e-09	4.057540e-03
2.788597606798960e-06	-2.603934e-08	4.876520e-03
2.886253856798960e-06	-4.043359e-08	5.750976e-03
2.928555478583990e-06	-4.576213e-08	6.146384e-03
2.970857100369019e-06	-5.050834e-08	6.549484e-03
3.013158722154049e-06	-5.467221e-08	6.960276e-03
3.055460343939079e-06	-5.825375e-08	7.378761e-03
3.097761965724108e-06	-6.125295e-08	7.804938e-03
3.140063587509138e-06	-6.366981e-08	8.238808e-03
3.182365209294167e-06	-6.550435e-08	8.680371e-03
3.280021459294167e-06	-6.755095e-08	9.693569e-03
3.377677709294167e-06	-6.667373e-08	1.070825e-02
3.475333959294167e-06	-6.308783e-08	1.171095e-02
3.526525834206974e-06	-6.005381e-08	1.223877e-02
3.577717709119780e-06	-5.655047e-08	1.275044e-02
3.628909584032587e-06	-5.257784e-08	1.324596e-02
3.680101458945394e-06	-4.813590e-08	1.372532e-02
3.731293333858201e-06	-4.322465e-08	1.418852e-02
3.782485208771007e-06	-3.784409e-08	1.463557e-02
3.833677083683814e-06	-3.199424e-08	1.506646e-02
3.931333333683814e-06	-2.045187e-08	1.581571e-02
4.028989583683815e-06	-8.485087e-09	1.648472e-02
4.126645833683815e-06	3.407861e-09	1.705320e-02
4.224302083683815e-06	1.473215e-08	1.751153e-02
4.321958333683815e-06	2.500934e-08	1.785164e-02
4.419614583683816e-06	3.378986e-08	1.806717e-02
4.517270833683816e-06	4.066495e-08	1.815355e-02
4.614927083683816e-06	4.527741e-08	1.810806e-02
4.712583333683816e-06	4.733126e-08	1.792984e-02
4.810239583683817e-06	4.659983e-08	1.761991e-02
4.971384266524827e-06	3.893587e-08	1.684299e-02
5.140339498700899e-06	2.214364e-08	1.564829e-02
5.237995748700899e-06	8.516002e-09	1.481325e-02
5.335651998700900e-06	-7.743863e-09	1.388106e-02
5.433308248700900e-06	-2.635079e-08	1.285962e-02
5.530964498700900e-06	-4.694889e-08	1.175935e-02
5.628620748700900e-06	-6.911942e-08	1.059109e-02
5.726276998700901e-06	-9.239024e-08	9.365803e-03
5.823933248700901e-06	-1.162466e-07	8.094339e-03
5.921589498700901e-06	-1.401428e-07	6.787233e-03
6.019245748700901e-06	-1.635155e-07	5.454462e-03
6.116901998700902e-06	-1.857963e-07	4.105269e-03
6.214558248700902e-06	-2.064257e-07	2.747983e-03
6.262296460196438e-06	-2.158581e-07	2.081514e-03
6.310034671691973e-06	-2.245781e-07	1.417403e-03
6.357772883187509e-06	-2.325856e-07	7.556517e-04
6.405511094683045e-06	-2.398806e-07	9.625955e-05
6.453249306178580e-06	-2.464631e-07	-5.607735e-04
6.500987517674116e-06	-2.523331e-07	-1.215447e-03
6.548725729169652e-06	-2.574906e-07	-1.867762e-03
6.744038229169652e-06	-2.684234e-07	-4.493856e-03
6.808850487436831e-06	-2.684209e-07	-5.350896e-03
6.873662745704010e-06	-2.665072e-07	-6.200206e-03
6.938475003971189e-06	-2.626822e-07	-7.041788e-03
7.003287262238368e-06	-2.569460e-07	-7.875640e-03
7.068099520505547e-06	-2.492986e-07	-8.701764e-03
7.132911778772726e-06	-2.397399e-07	-9.520160e-03
7.197724037039905e-06	-2.282699e-07	-1.033083e-02
7.295380287039905e-06	-2.077254e-07	-1.154980e-02
7.393036537039905e-06	-1.834220e-07	-1.276137e-02
7.490692787039906e-06	-1.557282e-07	-1.396853e-02
7.588349037039906e-06	-1.250864e-07	-1.517401e-02
7.686005287039905e-06	-9.200380e-08	-1.638014e-02
7.783661537039905e-06	-5.704193e-08	-1.758855e-02
7.881317787039904e-06	-2.080469e-08	-1.880003e-02
7.978974037039904e-06	1.607444e-08	-2.001430e-02
8.076630287039903e-06	5.294596e-08	-2.122992e-02
8.174286537039902e-06	8.915831e-08	-2.244407e-02
8.271942787039902e-06	1.240717e-07	-2.365255e-02
8.369599037039901e-06	1.570722e-07	-2.484966e-02
8.467255287039901e-06	1.875843e-07	-2.602824e-02
8.564911537039900e-06	2.150837e-07	-2.717964e-02
8.662567787039899e-06	2.391083e-07	-2.829383e-02
8.760224037039899e-06	2.592678e-07	-2.935950e-02
8.870087318289899e-06	2.769443e-07	-3.050297e-02
8.905846699175431e-06	2.815099e-07	-3.085415e-02
8.941606080060964e-06	2.854650e-07	-3.119155e-02
8.977365460946496e-06	2.888096e-07	-3.151519e-02
9.013124841832029e-06	2.915439e-07	-3.182506e-02
9.048884222717561e-06	2.936676e-07	-3.212116e-02
9.084643603603093e-06	2.951810e-07	-3.240349e-02
9.120402984488626e-06	2.960839e-07	-3.267206e-02
9.218059234488625e-06	2.954399e-07	-3.331731e-02
9.315715484488625e-06	2.903643e-07	-3.384811e-02
9.413371734488624e-06	2.810611e-07	-3.423627e-02
9.511027984488624e-06	2.678180e-07	-3.446788e-02
9.608684234488623e-06	2.509984e-07	-3.452991e-02
9.706340484488622e-06	2.310332e-07	-3.441058e-02
9.803996734488622e-06	2.084102e-07	-3.409956e-02
9.901652984488621e-06	1.836626e-07	-3.358831e-02
9.999309234488621e-06	1.573562e-07	-3.287024e-02
1.009696548448862e-05	1.300767e-07	-3.194105e-02
1.019462173448862e-05	1.024156e-07	-3.079874e-02
1.029227798448862e-05	7.495713e-08	-2.944390e-02
1.038993423448862e-05	4.826455e-08	-2.787969e-02
1.048759048448862e-05	2.286759e-08	-2.611194e-02
1.058524673448862e-05	-7.494458e-10	-2.414911e-02
1.068290298448862e-05	-2.215832e-08	-2.200227e-02
1.078055923448862e-05	-4.099616e-08	-1.968497e-02
1.087821548448862e-05	-5.697312e-08	-1.722054e-02
1.095337209158517e-05	-6.718535e-08	-1.522546e-02
1.104264308325336e-05	-7.686437e-08	-1.275669e-02
1.112941649101780e-05	-8.367775e-08	-1.027729e-02
1.122707274101780e-05	-8.829666e-08	-7.410534e-03
1.132472899101779e-05	-8.977449e-08	-4.487917e-03
1.137904755529653e-05	-8.920806e-08	-2.839677e-03
1.143336611957527e-05	-8.787695e-08	-1.193567e-03
1.148768468385401e-05	-8.578116e-08	4.504136e-04
1.154200324813275e-05	-8.292069e-08	2.092265e-03
1.159632181241149e-05	-7.929555e-08	3.731986e-03
1.165064037669023e-05	-7.490572e-08	5.369578e-03
1.170495894096896e-05	-6.975122e-08	7.005040e-03
1.174949553154514e-05	-6.517433e-08	8.326748e-03
1.179403212212131e-05	-6.040994e-08	9.625974e-03
1.183856871269748e-05	-5.545807e-08	1.090272e-02
1.188310530327365e-05	-5.031870e-08	1.215698e-02
1.192764189384982e-05	-4.499184e-08	1.338876e-02
1.197217848442599e-05	-3.947749e-08	1.459806e-02
1.201671507500217e-05	-3.377564e-08	1.578487e-02
1.211437132500217e-05	-2.146350e-08	1.827276e-02
1.221202757500216e-05	-9.514205e-09	2.062627e-02
1.230968382500216e-05	1.587791e-09	2.281307e-02
1.240734007500216e-05	1.138452e-08	2.481901e-02
1.250499632500216e-05	1.945650e-08	2.663227e-02
1.260265257500216e-05	2.543372e-08	2.824346e-02
1.270030882500216e-05	2.900548e-08	2.964569e-02
1.279796507500216e-05	2.992871e-08	3.083452e-02
1.289562132500216e-05	2.803467e-08	3.182636e-02
1.295984507070433e-05	2.520681e-08	3.235357e-02
1.304505843063074e-05	1.950310e-08	3.289293e-02
1.313334584625227e-05	1.127664e-08	3.328882e-02
1.323100209625227e-05	-4.654461e-10	3.353322e-02
1.332865834625227e-05	-1.479535e-08	3.358437e-02
1.342631459625227e-05	-3.144400e-08	3.344589e-02
1.352397084625226e-05	-5.007146e-08	3.312764e-02
1.362162709625226e-05	-7.027455e-08	3.264046e-02
1.371928334625226e-05	-9.159610e-08	3.199589e-02
1.381693959625226e-05	-1.135356e-07	3.120593e-02
1.391459584625226e-05	-1.355611e-07	3.028272e-02
1.401225209625226e-05	-1.571214e-07	2.923837e-02
1.410990834625226e-05	-1.776597e-07	2.808467e-02
1.420756459625226e-05	-1.966266e-07	2.683293e-02
1.430522084625226e-05	-2.134937e-07	2.549379e-02
1.440287709625226e-05	-2.277662e-07	2.407708e-02
1.450053334625226e-05	-2.389956e-07	2.259170e-02
1.469584584625226e-05	-2.508262e-07	1.944574e-02
1.489115834625226e-05	-2.467104e-07	1.611033e-02
1.504443961800330e-05	-2.316316e-07	1.337856e-02
1.513233918234486e-05	-2.183050e-07	1.177356e-02
1.522999543234486e-05	-1.996498e-07	9.960707e-03
1.532765168234486e-05	-1.771715e-07	8.119174e-03
1.542530793234486e-05	-1.511888e-07	6.250061e-03
1.552296418234486e-05	-1.220985e-07	4.355287e-03
1.565724152609486e-05	-7.789424e-08	1.716726e-03
1.569151930581026e-05	-6.594637e-08	1.035029e-03
1.572579708552566e-05	-5.384246e-08	3.512128e-04
1.576007486524106e-05	-4.158249e-08	-3.347216e-04
1.579435264495647e-05	-2.916647e-08	-1.022775e-03
1.582863042467187e-05	-1.659439e-08	-1.712946e-03
1.586290820438727e-05	-3.866253e-09	-2.405236e-03
1.589718598410267e-05	9.017935e-09	-3.099644e-03
1.600704926535267e-05	5.016368e-08	-5.325951e-03
1.604538697287220e-05	6.452510e-08	-6.106370e-03
1.608372468039173e-05	7.871110e-08	-6.885732e-03
1.612206238791126e-05	9.272168e-08	-7.664038e-03
1.616040009543080e-05	1.065568e-07	-8.441288e-03
1.619873780295033e-05	1.202166e-07	-9.217482e-03
1.623707551046986e-05	1.337009e-07	-9.992619e-03
1.627541321798939e-05	1.470098e-07	-1.076670e-02
1.637306946798939e-05	1.790457e-07	-1.272106e-02
1.647072571798939e-05	2.084452e-07	-1.464663e-02
1.656838196798939e-05	2.346923e-07	-1.653188e-02
1.666603821798939e-05	2.573341e-07	-1.836414e-02
1.670774103345395e-05	2.658591e-07	-1.913985e-02
1.674944384891852e-05	2.735818e-07	-1.989690e-02
1.679114666438308e-05	2.805020e-07	-2.063528e-02
1.683284947984764e-05	2.866198e-07	-2.135500e-02
1.687455229531221e-05	2.919352e-07	-2.205606e-02
1.691625511077677e-05	2.964482e-07	-2.273845e-02
1.695795792624134e-05	3.001588e-07	-2.340219e-02
1.704435454357669e-05	3.050941e-07	-2.470651e-02
1.713220078401316e-05	3.063829e-07	-2.593743e-02
1.722985703401316e-05	3.034485e-07	-2.717188e-02
1.732751328401315e-05	2.960507e-07	-2.825382e-02
1.742516953401315e-05	2.844153e-07	-2.916488e-02
1.752282578401315e-05	2.688505e-07	-2.989093e-02
1.762048203401315e-05	2.497403e-07	-3.041897e-02
1.771813828401315e-05	2.275344e-07	-3.073746e-02
1.781579453401315e-05	2.027385e-07	-3.083661e-02
1.791345078401315e-05	1.759020e-07	-3.070856e-02
1.801110703401315e-05	1.476054e-07	-3.034769e-02
1.810876328401315e-05	1.184471e-07	-2.975072e-02
1.820641953401315e-05	8.902973e-08	-2.891697e-02
1.830407578401315e-05	5.994627e-08	-2.784839e-02
1.840173203401315e-05	3.176706e-08	-2.654963e-02
1.849938828401315e-05	5.026922e-09	-2.502813e-02
1.859704453401315e-05	-1.978661e-08	-2.329401e-02
1.869470078401315e-05	-4.224385e-08	-2.136005e-02
1.879235703401315e-05	-6.198211e-08	-1.924154e-02
1.889001328401314e-05	-7.871321e-08	-1.696683e-02
1.904428080265507e-05	-9.853978e-08	-1.305903e-02
1.913208082252570e-05	-1.060816e-07	-1.070396e-02
1.922973707252570e-05	-1.112749e-07	-8.000488e-03
1.932739332252570e-05	-1.131896e-07	-5.233860e-03
1.938276092855248e-05	-1.127732e-07	-3.637579e-03
1.943812853457927e-05	-1.115258e-07	-2.043034e-03
1.949349614060605e-05	-1.094472e-07	-4.502263e-04
1.954886374663284e-05	-1.065375e-07	1.140845e-03
1.960423135265963e-05	-1.027967e-07	2.730180e-03
1.965959895868641e-05	-9.822483e-08	4.317778e-03
1.971496656471320e-05	-9.282184e-08	5.903639e-03
1.977596084920678e-05	-8.630076e-08	7.616218e-03
1.983695513370036e-05	-7.944210e-08	9.284615e-03
1.989794941819394e-05	-7.224585e-08	1.090883e-02
1.995894370268752e-05	-6.471203e-08	1.248886e-02
2.001993798718110e-05	-5.684062e-08	1.402471e-02
2.008093227167468e-05	-4.863163e-08	1.551638e-02
2.014192655616827e-05	-4.008506e-08	1.696387e-02
2.023958280616827e-05	-2.749492e-08	1.913532e-02
2.033723905616826e-05	-1.575370e-08	2.113424e-02
2.043489530616826e-05	-5.315607e-09	2.294681e-02
2.053255155616826e-05	3.406054e-09	2.456174e-02
2.063020780616826e-05	1.004965e-08	2.597028e-02
2.072786405616826e-05	1.431466e-08	2.716631e-02
2.082552030616826e-05	1.596964e-08	2.814629e-02
2.092317655616826e-05	1.485846e-08	2.892865e-02
2.105461876633220e-05	8.873572e-09	2.961258e-02
2.114889466367876e-05	1.432325e-09	2.985481e-02
2.124655091367876e-05	-8.931908e-09	2.991897e-02
2.134420716367876e-05	-2.180697e-08	2.978890e-02
2.144186341367876e-05	-3.692342e-08	2.947243e-02
2.153951966367876e-05	-5.394225e-08	2.898049e-02
2.163717591367875e-05	-7.246265e-08	2.832497e-02
2.173483216367875e-05	-9.203150e-08	2.751850e-02
2.183248841367875e-05	-1.121541e-07	2.657413e-02
2.193014466367875e-05	-1.323060e-07	2.550508e-02
2.202780091367875e-05	-1.519457e-07	2.432448e-02
2.212545716367875e-05	-1.705275e-07	2.304515e-02
2.222311341367875e-05	-1.875155e-07	2.167936e-02
2.232076966367875e-05	-2.023959e-07	2.023870e-02
2.241842591367875e-05	-2.146906e-07	1.873387e-02
2.251608216367875e-05	-2.239686e-07	1.717464e-02
2.271139466367875e-05	-2.320525e-07	1.392681e-02
2.290670716367875e-05	-2.245316e-07	1.055406e-02
2.304863730145460e-05	-2.087603e-07	8.045430e-03
2.313916729915824e-05	-1.942143e-07	6.426944e-03
2.323682354915824e-05	-1.747673e-07	4.668932e-03
2.333447979915824e-05	-1.516612e-07	2.900339e-03
2.339254494110857e-05	-1.361742e-07	1.844572e-03
2.345061008305891e-05	-1.198023e-07	7.868604e-04
2.350867522500924e-05	-1.025454e-07	-2.727969e-04
2.356674036695957e-05	-8.440352e-08	-1.334400e-03
2.362480550890991e-05	-6.537669e-08	-2.397948e-03
2.368287065086024e-05	-4.546490e-08	-3.463442e-03
2.374093579281058e-05	-2.466815e-08	-4.530881e-03
2.378657592081002e-05	-8.185563e-09	-5.369218e-03
2.383221604880946e-05	8.358792e-09	-6.205704e-03
2.387785617680890e-05	2.496492e-08	-7.040337e-03
2.392349630480834e-05	4.163282e-08	-7.873118e-03
2.396913643280779e-05	5.836249e-08	-8.704047e-03
2.401477656080723e-05	7.515393e-08	-9.533124e-03
2.406041668880667e-05	9.200715e-08	-1.036035e-02
2.415807293880667e-05	1.269406e-07	-1.211556e-02
2.425572918880667e-05	1.604103e-07	-1.384741e-02
2.435338543880667e-05	1.918076e-07	-1.554798e-02
2.445104168880667e-05	2.205619e-07	-1.720822e-02
2.454869793880667e-05	2.461532e-07	-1.881799e-02
2.465856122005666e-05	2.705950e-07	-2.057260e-02
2.470019521224227e-05	2.785724e-07	-2.121125e-02
2.474182920442788e-05	2.857464e-07	-2.183150e-02
2.478346319661349e-05	2.921170e-07	-2.243335e-02
2.482509718879909e-05	2.976841e-07	-2.301680e-02
2.486673118098470e-05	3.024479e-07	-2.358185e-02
2.490836517317031e-05	3.064082e-07	-2.412850e-02
2.494999916535592e-05	3.095651e-07	-2.465674e-02
2.504138332645275e-05	3.133921e-07	-2.574478e-02
2.512736692882408e-05	3.132357e-07	-2.666430e-02
2.522502317882408e-05	3.086916e-07	-2.757243e-02
2.532267942882408e-05	2.996446e-07	-2.832894e-02
2.542033567882408e-05	2.863274e-07	-2.891646e-02
2.551799192882408e-05	2.690562e-07	-2.932257e-02
2.561564817882408e-05	2.482228e-07	-2.953600e-02
2.571330442882408e-05	2.242859e-07	-2.954689e-02
2.581096067882408e-05	1.977599e-07	-2.934710e-02
2.590861692882408e-05	1.692039e-07	-2.893041e-02
2.604289427257408e-05	1.277127e-07	-2.804332e-02
2.612834349132408e-05	1.006171e-07	-2.722740e-02
2.627482786632408e-05	5.427494e-08	-2.539044e-02
2.637248411632408e-05	2.428932e-08	-2.392910e-02
2.647014036632408e-05	-4.315613e-09	-2.226136e-02
2.656779661632408e-05	-3.102849e-08	-2.039780e-02
2.666545286632408e-05	-5.539340e-08	-1.835160e-02
2.676310911632408e-05	-7.701958e-08	-1.613832e-02
2.686076536632408e-05	-9.558942e-08	-1.377940e-02
2.694687126669091e-05	-1.092357e-07	-1.158900e-02
2.704021429916776e-05	-1.210088e-07	-9.116336e-03
2.712546488799482e-05	-1.289580e-07	-6.786897e-03
2.722312113799482e-05	-1.347753e-07	-4.055923e-03
2.727513725999538e-05	-1.364047e-07	-2.579048e-03
2.732715338199594e-05	-1.371567e-07	-1.101641e-03
2.737916950399649e-05	-1.370311e-07	3.762978e-04
2.743118562599706e-05	-1.360281e-07	1.854769e-03
2.748320174799761e-05	-1.341475e-07	3.333771e-03
2.753521786999817e-05	-1.313894e-07	4.813306e-03
2.758723399199873e-05	-1.277538e-07	6.293372e-03
2.765038766762303e-05	-1.224285e-07	8.058780e-03
2.771354134324733e-05	-1.164353e-07	9.778715e-03
2.777669501887163e-05	-1.097743e-07	1.145318e-02
2.783984869449593e-05	-1.024454e-07	1.308216e-02
2.790300237012023e-05	-9.444865e-08	1.466568e-02
2.796615604574453e-05	-8.578407e-08	1.620372e-02
2.802930972136883e-05	-7.645163e-08	1.769629e-02
2.812696597136883e-05	-6.255128e-08	1.985082e-02
2.822462222136883e-05	-4.881428e-08	2.183062e-02
2.832227847136883e-05	-3.573393e-08	2.362034e-02
2.841993472136883e-05	-2.377694e-08	2.520717e-02
2.851759097136883e-05	-1.337157e-08	2.658084e-02
2.861524722136883e-05	-4.896638e-09	2.773380e-02
2.871290347136883e-05	1.328234e-09	2.866118e-02
2.881055972136883e-05	5.050835e-09	2.936082e-02
2.890821597136883e-05	6.092959e-09	2.985254e-02
2.904955208239964e-05	2.670324e-09	3.013422e-02
2.914065514558734e-05	-2.628158e-09	3.006765e-02
2.923831139558734e-05	-1.090262e-08	2.980284e-02
2.933596764558734e-05	-2.168909e-08	2.934321e-02
2.943362389558734e-05	-3.473594e-08	2.869678e-02
2.953128014558734e-05	-4.972141e-08	2.787640e-02
2.962893639558734e-05	-6.626122e-08	2.689597e-02
2.972659264558734e-05	-8.391777e-08	2.577006e-02
2.982424889558734e-05	-1.022108e-07	2.451371e-02
2.992190514558734e-05	-1.206290e-07	2.314206e-02
3.001956139558734e-05	-1.386426e-07	2.167015e-02
3.011721764558734e-05	-1.557163e-07	2.011263e-02
3.021487389558734e-05	-1.713225e-07	1.848358e-02
3.031253014558734e-05	-1.849549e-07	1.679628e-02
3.041018639558733e-05	-1.961405e-07	1.506305e-02
3.050784264558733e-05	-2.044523e-07	1.329516e-02
3.070315514558734e-05	-2.110405e-07	9.694720e-03
3.089846764558734e-05	-2.026043e-07	6.061070e-03
3.104545295259373e-05	-1.857948e-07	3.334998e-03
3.112760999705603e-05	-1.722732e-07	1.817884e-03
3.120976704151833e-05	-1.564514e-07	3.133260e-04
3.129192408598062e-05	-1.383293e-07	-1.178674e-03
3.137408113044293e-05	-1.179070e-07	-2.658118e-03
3.145623817490523e-05	-9.518446e-08	-4.125004e-03
3.153839521936752e-05	-7.016168e-08	-5.579333e-03
3.162055226382982e-05	-4.283866e-08	-7.021105e-03
3.170600148257982e-05	-1.391975e-08	-8.495113e-03
3.180365773257982e-05	2.034579e-08	-1.015517e-02
3.190131398257982e-05	5.532706e-08	-1.178977e-02
3.199897023257983e-05	9.039507e-08	-1.339244e-02
3.209662648257983e-05	1.249102e-07	-1.495912e-02
3.219428273257983e-05	1.582363e-07	-1.648484e-02
3.229193898257983e-05	1.897542e-07	-1.796370e-02
3.238959523257984e-05	2.188755e-07	-1.938879e-02
3.248725148257984e-05	2.450553e-07	-2.075221e-02
3.252733305170651e-05	2.549010e-07	-2.130344e-02
3.256741462083319e-05	2.640703e-07	-2.183775e-02
3.260749618995986e-05	2.725632e-07	-2.235515e-02
3.264757775908653e-05	2.803798e-07	-2.285563e-02
3.268765932821320e-05	2.875200e-07	-2.333920e-02
3.272774089733988e-05	2.939839e-07	-2.380586e-02
3.276782246646655e-05	2.997714e-07	-2.425561e-02
3.286547871646655e-05	3.105782e-07	-2.528053e-02
3.294862875703689e-05	3.161396e-07	-2.607337e-02
3.304087124327050e-05	3.183100e-07	-2.684645e-02
3.312653376547807e-05	3.165465e-07	-2.745582e-02
3.322419001547807e-05	3.101580e-07	-2.801121e-02
3.332184626547807e-05	2.992562e-07	-2.841410e-02
3.341950251547807e-05	2.840848e-07	-2.864904e-02
3.351715876547808e-05	2.649711e-07	-2.870568e-02
3.361481501547808e-05	2.423178e-07	-2.857484e-02
3.371247126547808e-05	2.165942e-07	-2.824872e-02
